[RTU]>Tx > 20:52:09:320 : 08  04  00  6B  00  04  80  8C  
[RTU]>Rx > 20:52:09:343 : 08  04  08  00  0F  00  00  01  52  00  00  55  BC  
[RTU]>Tx > 20:52:10:334 : 08  04  00  6B  00  04  80  8C  
[RTU]>Rx > 20:52:10:358 : 08  04  08  00  0F  00  00  01  59  00  00  24  7E  
[RTU]>Tx > 20:52:11:347 : 08  04  00  6B  00  04  80  8C  
[RTU]>Rx > 20:52:11:371 : 08  04  08  00  0F  00  00  01  60  00  00  F4  73  
[RTU]>Tx > 20:52:12:360 : 08  04  00  6B  00  04  80  8C  
[RTU]>Rx > 20:52:12:385 : 08  04  08  00  0F  00  00  01  67  00  00  45  B2  
[RTU]>Tx > 20:52:13:389 : 08  04  00  6B  00  04  80  8C  
[RTU]>Rx > 20:52:13:414 : 08  04  08  00  0F  00  00  01  6D  00  00  65  B0  
[RTU]>Tx > 20:52:14:390 : 08  04  00  6B  00  04  80  8C  
[RTU]>Rx > 20:52:14:414 : 08  04  08  00  0F  00  00  01  74  00  00  B4  77  
[RTU]>Tx > 20:52:15:392 : 08  04  00  6B  00  04  80  8C  
[RTU]>Rx > 20:52:15:416 : 08  04  08  00  0F  00  00  01  7A  00  00  D5  B4  
[RTU]>Tx > 20:52:16:406 : 08  04  00  6B  00  04  80  8C  
[RTU]>Rx > 20:52:16:431 : 08  04  08  00  0F  00  00  01  81  00  00  A4  45  
[RTU]>Tx > 20:52:17:406 : 08  04  00  6B  00  04  80  8C  
[RTU]>Rx > 20:52:17:431 : 08  04  08  00  0F  00  00  01  87  00  00  44  44  
[RTU]>Tx > 20:52:18:402 : 08  04  00  6B  00  04  80  8C  
[RTU]>Rx > 20:52:18:426 : 08  04  08  00  0F  00  00  01  8D  00  00  64  46  
[RTU]>Tx > 20:52:19:416 : 08  04  00  6B  00  04  80  8C  
[RTU]>Rx > 20:52:19:441 : 08  04  08  00  0F  00  00  01  93  00  00  04  40  
[RTU]>Tx > 20:52:20:416 : 08  04  00  6B  00  04  80  8C  
[RTU]>Rx > 20:52:20:441 : 08  04  08  00  0F  00  00  01  99  00  00  24  42  
[RTU]>Tx > 20:52:21:416 : 08  04  00  6B  00  04  80  8C  
[RTU]>Rx > 20:52:21:441 : 08  04  08  00  0F  00  00  01  9F  00  00  C4  43  
[RTU]>Tx > 20:52:22:431 : 08  04  00  6B  00  04  80  8C  
[RTU]>Rx > 20:52:22:455 : 08  04  08  00  0F  00  00  01  A5  00  00  E4  4E  
[RTU]>Tx > 20:52:23:433 : 08  04  00  6B  00  04  80  8C  
[RTU]>Rx > 20:52:23:457 : 08  04  08  00  0F  00  00  01  AA  00  00  D4  4D  
[RTU]>Tx > 20:52:24:429 : 08  04  00  6B  00  04  80  8C  
[RTU]>Rx > 20:52:24:452 : 08  04  08  00  0F  00  00  01  B0  00  00  F5  8A  
[RTU]>Tx > 20:52:25:428 : 08  04  00  6B  00  04  80  8C  
[RTU]>Rx > 20:52:25:452 : 08  04  08  00  0F  00  00  01  B5  00  00  E5  8B  
[RTU]>Tx > 20:52:26:435 : 08  04  00  6B  00  04  80  8C  
[RTU]>Rx > 20:52:26:460 : 08  04  08  00  0F  00  00  01  BA  00  00  D5  88  
[RTU]>Tx > 20:52:27:438 : 08  04  00  6B  00  04  80  8C  
[RTU]>Rx > 20:52:27:462 : 08  04  08  00  0F  00  00  01  C0  00  00  F4  51  
[RTU]>Tx > 20:52:28:436 : 08  04  00  6B  00  04  80  8C  
[RTU]>Rx > 20:52:28:460 : 08  04  08  00  0F  00  00  01  C5  00  00  E4  50  
[RTU]>Tx > 20:52:29:439 : 08  04  00  6B  00  04  80  8C  
[RTU]>Rx > 20:52:29:463 : 08  04  08  00  0F  00  00  01  CA  00  00  D4  53  
[RTU]>Tx > 20:52:30:468 : 08  04  00  6B  00  04  80  8C  
[RTU]>Rx > 20:52:30:492 : 08  04  08  00  0F  00  00  01  CF  00  00  C4  52  
[RTU]>Tx > 20:52:31:482 : 08  04  00  6B  00  04  80  8C  
[RTU]>Rx > 20:52:31:506 : 08  04  08  00  0F  00  00  01  D4  00  00  B4  55  
[RTU]>Tx > 20:52:32:495 : 08  04  00  6B  00  04  80  8C  
[RTU]>Rx > 20:52:32:520 : 08  04  08  00  0F  00  00  01  D9  00  00  25  96  
[RTU]>Tx > 20:52:33:498 : 08  04  00  6B  00  04  80  8C  
[RTU]>Rx > 20:52:33:523 : 08  04  08  00  0F  00  00  01  DE  00  00  94  57  
[RTU]>Tx > 20:52:34:496 : 08  04  00  6B  00  04  80  8C  
[RTU]>Rx > 20:52:34:521 : 08  04  08  00  0F  00  00  01  E2  00  00  54  5B  
[RTU]>Tx > 20:52:35:514 : 08  04  00  6B  00  04  80  8C  
[RTU]>Rx > 20:52:35:538 : 08  04  08  00  0F  00  00  01  E7  00  00  44  5A  
[RTU]>Tx > 20:52:36:523 : 08  04  00  6B  00  04  80  8C  
[RTU]>Rx > 20:52:36:551 : 08  04  08  00  0F  00  00  01  EC  00  00  35  98  
[RTU]>Tx > 20:52:37:538 : 08  04  00  6B  00  04  80  8C  
[RTU]>Rx > 20:52:37:562 : 08  04  08  00  0F  00  00  01  F3  00  00  04  5E  
[RTU]>Tx > 20:52:38:541 : 08  04  00  6B  00  04  80  8C  
[RTU]>Rx > 20:52:38:566 : 08  04  08  00  0F  00  00  01  F9  00  00  24  5C  
[RTU]>Tx > 20:52:39:540 : 08  04  00  6B  00  04  80  8C  
[RTU]>Rx > 20:52:39:565 : 08  04  08  00  0F  00  00  02  00  00  00  F4  29  
[RTU]>Tx > 20:52:40:539 : 08  04  00  6B  00  04  80  8C  
[RTU]>Rx > 20:52:40:564 : 08  04  08  00  0F  00  00  02  06  00  00  14  28  
[RTU]>Tx > 20:52:41:552 : 08  04  00  6B  00  04  80  8C  
[RTU]>Rx > 20:52:41:576 : 08  04  08  00  0F  00  00  02  0D  00  00  65  EA  
[RTU]>Tx > 20:52:42:567 : 08  04  00  6B  00  04  80  8C  
[RTU]>Rx > 20:52:42:591 : 08  04  08  00  0F  00  00  02  14  00  00  B4  2D  
[RTU]>Tx > 20:52:43:582 : 08  04  00  6B  00  04  80  8C  
[RTU]>Rx > 20:52:43:606 : 08  04  08  00  0F  00  00  02  1A  00  00  D5  EE  
[RTU]>Tx > 20:52:44:597 : 08  04  00  6B  00  04  80  8C  
[RTU]>Rx > 20:52:44:622 : 08  04  08  00  0F  00  00  02  20  00  00  F5  E3  
[RTU]>Tx > 20:52:45:610 : 08  04  00  6B  00  04  80  8C  
[RTU]>Rx > 20:52:45:634 : 08  04  08  00  0F  00  00  02  25  00  00  E5  E2  
[RTU]>Tx > 20:52:46:612 : 08  04  00  6B  00  04  80  8C  
[RTU]>Rx > 20:52:46:636 : 08  04  08  00  0F  00  00  02  2A  00  00  D5  E1  
[RTU]>Tx > 20:52:47:614 : 08  04  00  6B  00  04  80  8C  
[RTU]>Rx > 20:52:47:638 : 08  04  08  00  0F  00  00  02  2F  00  00  C5  E0  
[RTU]>Tx > 20:52:48:629 : 08  04  00  6B  00  04  80  8C  
[RTU]>Rx > 20:52:48:652 : 08  04  08  00  0F  00  00  02  34  00  00  B5  E7  
[RTU]>Tx > 20:52:49:641 : 08  04  00  6B  00  04  80  8C  
[RTU]>Rx > 20:52:49:666 : 08  04  08  00  0F  00  00  02  39  00  00  24  24  
[RTU]>Tx > 20:52:50:641 : 08  04  00  6B  00  04  80  8C  
[RTU]>Rx > 20:52:50:666 : 08  04  08  00  0F  00  00  02  3E  00  00  95  E5  
[RTU]>Tx > 20:52:51:658 : 08  04  00  6B  00  04  80  8C  
[RTU]>Rx > 20:52:51:683 : 08  04  08  00  0F  00  00  02  43  00  00  05  FD  
[RTU]>Tx > 20:52:52:669 : 08  04  00  6B  00  04  80  8C  
[RTU]>Rx > 20:52:52:694 : 08  04  08  00  0F  00  00  02  48  00  00  74  3F  
[RTU]>Tx > 20:52:53:683 : 08  04  00  6B  00  04  80  8C  
[RTU]>Rx > 20:52:53:708 : 08  04  08  00  0F  00  00  02  4D  00  00  64  3E  
[RTU]>Tx > 20:52:54:699 : 08  04  00  6B  00  04  80  8C  
[RTU]>Rx > 20:52:54:723 : 08  04  08  00  0F  00  00  02  52  00  00  55  F8  
[RTU]>Tx > 20:52:55:698 : 08  04  00  6B  00  04  80  8C  
[RTU]>Rx > 20:52:55:723 : 08  04  08  00  0F  00  00  02  57  00  00  45  F9  
[RTU]>Tx > 20:52:56:714 : 08  04  00  6B  00  04  80  8C  
[RTU]>Rx > 20:52:56:738 : 08  04  08  00  0F  00  00  02  5D  00  00  65  FB  
[RTU]>Tx > 20:52:57:729 : 08  04  00  6B  00  04  80  8C  
[RTU]>Rx > 20:52:57:753 : 08  04  08  00  0F  00  00  02  63  00  00  04  37  
[RTU]>Tx > 20:52:58:744 : 08  04  00  6B  00  04  80  8C  
[RTU]>Rx > 20:52:58:767 : 08  04  08  00  0F  00  00  02  6A  00  00  D4  35  
[RTU]>Tx > 20:52:59:757 : 08  04  00  6B  00  04  80  8C  
[RTU]>Rx > 20:52:59:781 : 08  04  08  00  0F  00  00  02  71  00  00  A4  32  
[RTU]>Tx > 20:53:00:760 : 08  04  00  6B  00  04  80  8C  
[RTU]>Rx > 20:53:00:784 : 08  04  08  00  0F  00  00  02  78  00  00  74  30  
[RTU]>Tx > 20:53:01:756 : 08  04  00  6B  00  04  80  8C  
[RTU]>Rx > 20:53:01:780 : 08  04  08  00  0F  00  00  02  7F  00  00  C5  F1  
[RTU]>Tx > 20:53:02:771 : 08  04  00  6B  00  04  80  8C  
[RTU]>Rx > 20:53:02:795 : 08  04  08  00  0F  00  00  02  86  00  00  15  C0  
[RTU]>Tx > 20:53:03:788 : 08  04  00  6B  00  04  80  8C  
[RTU]>Rx > 20:53:03:813 : 08  04  08  00  0F  00  00  02  8D  00  00  64  02  
[RTU]>Tx > 20:53:04:808 : 08  04  00  6B  00  04  80  8C  
[RTU]>Rx > 20:53:04:832 : 08  04  08  00  0F  00  00  02  93  00  00  04  04  
[RTU]>Tx > 20:53:05:806 : 08  04  00  6B  00  04  80  8C  
[RTU]>Rx > 20:53:05:830 : 08  04  08  00  0F  00  00  02  98  00  00  75  C6  
[RTU]>Tx > 20:53:06:823 : 08  04  00  6B  00  04  80  8C  
[RTU]>Rx > 20:53:06:847 : 08  04  08  00  0F  00  00  02  9E  00  00  95  C7  
[RTU]>Tx > 20:53:07:821 : 08  04  00  6B  00  04  80  8C  
[RTU]>Rx > 20:53:07:846 : 08  04  08  00  0F  00  00  02  A3  00  00  04  0B  
[RTU]>Tx > 20:53:08:822 : 08  04  00  6B  00  04  80  8C  
[RTU]>Rx > 20:53:08:846 : 08  04  08  00  0F  00  00  02  A9  00  00  24  09  
[RTU]>Tx > 20:53:09:822 : 08  04  00  6B  00  04  80  8C  
[RTU]>Rx > 20:53:09:846 : 08  04  08  00  0F  00  00  02  AE  00  00  95  C8  
[RTU]>Tx > 20:53:10:835 : 08  04  00  6B  00  04  80  8C  
[RTU]>Rx > 20:53:10:860 : 08  04  08  00  0F  00  00  02  B3  00  00  05  CE  
[RTU]>Tx > 20:53:11:836 : 08  04  00  6B  00  04  80  8C  
[RTU]>Rx > 20:53:11:860 : 08  04  08  00  0F  00  00  02  B8  00  00  74  0C  
[RTU]>Tx > 20:53:12:852 : 08  04  00  6B  00  04  80  8C  
[RTU]>Rx > 20:53:12:876 : 08  04  08  00  0F  00  00  02  BD  00  00  64  0D  
[RTU]>Tx > 20:53:13:864 : 08  04  00  6B  00  04  80  8C  
[RTU]>Rx > 20:53:13:888 : 08  04  08  00  0F  00  00  02  C2  00  00  55  D5  
[RTU]>Tx > 20:53:14:878 : 08  04  00  6B  00  04  80  8C  
[RTU]>Rx > 20:53:14:903 : 08  04  08  00  0F  00  00  02  C7  00  00  45  D4  
[RTU]>Tx > 20:53:15:895 : 08  04  00  6B  00  04  80  8C  
[RTU]>Rx > 20:53:15:919 : 08  04  08  00  0F  00  00  02  CD  00  00  65  D6  
[RTU]>Tx > 20:53:16:918 : 08  04  00  6B  00  04  80  8C  
[RTU]>Rx > 20:53:16:942 : 08  04  08  00  0F  00  00  02  D1  00  00  A4  10  
[RTU]>Tx > 20:53:17:932 : 08  04  00  6B  00  04  80  8C  
[RTU]>Rx > 20:53:17:956 : 08  04  08  00  0F  00  00  02  D6  00  00  15  D1  
[RTU]>Tx > 20:53:18:928 : 08  04  00  6B  00  04  80  8C  
[RTU]>Rx > 20:53:18:952 : 08  04  08  00  0F  00  00  02  DB  00  00  84  12  
[RTU]>Tx > 20:53:19:925 : 08  04  00  6B  00  04  80  8C  
[RTU]>Rx > 20:53:19:949 : 08  04  08  00  0F  00  00  02  E0  00  00  F5  DF  
[RTU]>Tx > 20:53:20:926 : 08  04  00  6B  00  04  80  8C  
[RTU]>Rx > 20:53:20:949 : 08  04  08  00  0F  00  00  02  E5  00  00  E5  DE  
[RTU]>Tx > 20:53:21:929 : 08  04  00  6B  00  04  80  8C  
[RTU]>Rx > 20:53:21:952 : 08  04  08  00  0F  00  00  02  EA  00  00  D5  DD  
[RTU]>Tx > 20:53:22:933 : 08  04  00  6B  00  04  80  8C  
[RTU]>Rx > 20:53:22:957 : 08  04  08  00  0F  00  00  02  F0  00  00  F4  1A  
[RTU]>Tx > 20:53:23:949 : 08  04  00  6B  00  04  80  8C  
[RTU]>Rx > 20:53:23:973 : 08  04  08  00  0F  00  00  02  F6  00  00  14  1B  
[RTU]>Tx > 20:53:24:954 : 08  04  00  6B  00  04  80  8C  
[RTU]>Rx > 20:53:24:978 : 08  04  08  00  0F  00  00  02  FC  00  00  34  19  
[RTU]>Tx > 20:53:25:963 : 08  04  00  6B  00  04  80  8C  
[RTU]>Rx > 20:53:25:987 : 08  04  08  00  0F  00  00  03  03  00  00  05  D5  
[RTU]>Tx > 20:53:26:979 : 08  04  00  6B  00  04  80  8C  
[RTU]>Rx > 20:53:27:004 : 08  04  08  00  0F  00  00  03  09  00  00  25  D7  
[RTU]>Tx > 20:53:27:982 : 08  04  00  6B  00  04  80  8C  
[RTU]>Rx > 20:53:28:006 : 08  04  08  00  0F  00  00  03  0F  00  00  C5  D6  
[RTU]>Tx > 20:53:28:982 : 08  04  00  6B  00  04  80  8C  
[RTU]>Rx > 20:53:29:007 : 08  04  08  00  0F  00  00  03  16  00  00  14  11  
[RTU]>Tx > 20:53:29:983 : 08  04  00  6B  00  04  80  8C  
[RTU]>Rx > 20:53:30:007 : 08  04  08  00  0F  00  00  03  1C  00  00  34  13  
[RTU]>Tx > 20:53:30:985 : 08  04  00  6B  00  04  80  8C  
[RTU]>Rx > 20:53:31:008 : 08  04  08  00  0F  00  00  03  23  00  00  04  1F  
[RTU]>Tx > 20:53:31:994 : 08  04  00  6B  00  04  80  8C  
[RTU]>Rx > 20:53:32:018 : 08  04  08  00  0F  00  00  03  29  00  00  24  1D  
[RTU]>Tx > 20:53:32:996 : 08  04  00  6B  00  04  80  8C  
[RTU]>Rx > 20:53:33:020 : 08  04  08  00  0F  00  00  03  2F  00  00  C4  1C  
[RTU]>Tx > 20:53:33:997 : 08  04  00  6B  00  04  80  8C  
[RTU]>Rx > 20:53:34:022 : 08  04  08  00  0F  00  00  03  35  00  00  E5  DB  
[RTU]>Tx > 20:53:34:997 : 08  04  00  6B  00  04  80  8C  
[RTU]>Rx > 20:53:35:022 : 08  04  08  00  0F  00  00  03  3C  00  00  35  D9  
[RTU]>Tx > 20:53:35:997 : 08  04  00  6B  00  04  80  8C  
[RTU]>Rx > 20:53:36:021 : 08  04  08  00  0F  00  00  03  42  00  00  55  C1  
[RTU]>Tx > 20:53:36:998 : 08  04  00  6B  00  04  80  8C  
[RTU]>Rx > 20:53:37:022 : 08  04  08  00  0F  00  00  03  48  00  00  75  C3  
[RTU]>Tx > 20:53:37:998 : 08  04  00  6B  00  04  80  8C  
[RTU]>Rx > 20:53:38:026 : 08  04  08  00  0F  00  00  03  4E  00  00  95  C2  
[RTU]>Tx > 20:53:39:012 : 08  04  00  6B  00  04  80  8C  
[RTU]>Rx > 20:53:39:036 : 08  04  08  00  0F  00  00  03  55  00  00  E5  C5  
[RTU]>Tx > 20:53:40:015 : 08  04  00  6B  00  04  80  8C  
[RTU]>Rx > 20:53:40:040 : 08  04  08  00  0F  00  00  03  5B  00  00  84  06  
[RTU]>Tx > 20:53:41:024 : 08  04  00  6B  00  04  80  8C  
[RTU]>Rx > 20:53:41:049 : 08  04  08  00  0F  00  00  03  60  00  00  F5  CB  
[RTU]>Tx > 20:53:42:025 : 08  04  00  6B  00  04  80  8C  
[RTU]>Rx > 20:53:42:050 : 08  04  08  00  0F  00  00  03  66  00  00  15  CA  
[RTU]>Tx > 20:53:43:044 : 08  04  00  6B  00  04  80  8C  
[RTU]>Rx > 20:53:43:068 : 08  04  08  00  0F  00  00  03  6C  00  00  35  C8  
[RTU]>Tx > 20:53:44:046 : 08  04  00  6B  00  04  80  8C  
[RTU]>Rx > 20:53:44:071 : 08  04  08  00  0F  00  00  03  72  00  00  55  CE  
[RTU]>Tx > 20:53:45:048 : 08  04  00  6B  00  04  80  8C  
[RTU]>Rx > 20:53:45:072 : 08  04  08  00  0F  00  00  03  77  00  00  45  CF  
[RTU]>Tx > 20:53:46:063 : 08  04  00  6B  00  04  80  8C  
[RTU]>Rx > 20:53:46:088 : 08  04  08  00  0F  00  00  03  7D  00  00  65  CD  
[RTU]>Tx > 20:53:47:061 : 08  04  00  6B  00  04  80  8C  
[RTU]>Rx > 20:53:47:086 : 08  04  08  00  0F  00  00  03  83  00  00  04  3D  
[RTU]>Tx > 20:53:48:050 : 08  04  00  6B  00  04  80  8C  
[RTU]>Rx > 20:53:48:074 : 08  04  08  00  0F  00  00  03  88  00  00  75  FF  
[RTU]>Tx > 20:53:49:064 : 08  04  00  6B  00  04  80  8C  
[RTU]>Rx > 20:53:49:088 : 08  04  08  00  0F  00  00  03  8E  00  00  95  FE  
[RTU]>Tx > 20:53:50:077 : 08  04  00  6B  00  04  80  8C  
[RTU]>Rx > 20:53:50:102 : 08  04  08  00  0F  00  00  03  93  00  00  05  F8  
[RTU]>Tx > 20:53:51:078 : 08  04  00  6B  00  04  80  8C  
[RTU]>Rx > 20:53:51:102 : 08  04  08  00  0F  00  00  03  99  00  00  25  FA  
[RTU]>Tx > 20:53:52:066 : 08  04  00  6B  00  04  80  8C  
[RTU]>Rx > 20:53:52:091 : 08  04  08  00  0F  00  00  03  9E  00  00  94  3B  
[RTU]>Tx > 20:53:53:067 : 08  04  00  6B  00  04  80  8C  
[RTU]>Rx > 20:53:53:092 : 08  04  08  00  0F  00  00  03  A4  00  00  B4  36  
[RTU]>Tx > 20:53:54:069 : 08  04  00  6B  00  04  80  8C  
[RTU]>Rx > 20:53:54:094 : 08  04  08  00  0F  00  00  03  AA  00  00  D5  F5  
[RTU]>Tx > 20:53:55:081 : 08  04  00  6B  00  04  80  8C  
[RTU]>Rx > 20:53:55:105 : 08  04  08  00  0F  00  00  03  AF  00  00  C5  F4  
[RTU]>Tx > 20:53:56:096 : 08  04  00  6B  00  04  80  8C  
[RTU]>Rx > 20:53:56:121 : 08  04  08  00  0F  00  00  03  B5  00  00  E4  33  
[RTU]>Tx > 20:53:57:097 : 08  04  00  6B  00  04  80  8C  
[RTU]>Rx > 20:53:57:121 : 08  04  08  00  0F  00  00  03  BA  00  00  D4  30  
[RTU]>Tx > 20:53:58:099 : 08  04  00  6B  00  04  80  8C  
[RTU]>Rx > 20:53:58:123 : 08  04  08  00  0F  00  00  03  C0  00  00  F5  E9  
[RTU]>Tx > 20:53:59:111 : 08  04  00  6B  00  04  80  8C  
[RTU]>Rx > 20:53:59:135 : 08  04  08  00  0F  00  00  03  C5  00  00  E5  E8  
[RTU]>Tx > 20:54:00:130 : 08  04  00  6B  00  04  80  8C  
[RTU]>Rx > 20:54:00:155 : 08  04  08  00  0F  00  00  03  CA  00  00  D5  EB  
[RTU]>Tx > 20:54:01:147 : 08  04  00  6B  00  04  80  8C  
[RTU]>Rx > 20:54:01:172 : 08  04  08  00  0F  00  00  03  CF  00  00  C5  EA  
[RTU]>Tx > 20:54:02:162 : 08  04  00  6B  00  04  80  8C  
[RTU]>Rx > 20:54:02:186 : 08  04  08  00  0F  00  00  03  D5  00  00  E4  2D  
[RTU]>Tx > 20:54:03:173 : 08  04  00  6B  00  04  80  8C  
[RTU]>Rx > 20:54:03:197 : 08  04  08  00  0F  00  00  03  DA  00  00  D4  2E  
[RTU]>Tx > 20:54:04:175 : 08  04  00  6B  00  04  80  8C  
[RTU]>Rx > 20:54:04:237 : 08  04  08  00  0F  00  00  03  E4  00  00  B5  E2  
[RTU]>Tx > 20:54:05:190 : 08  04  00  6B  00  04  80  8C  
[RTU]>Rx > 20:54:05:235 : 08  04  08  00  10  00  00  00  01  00  00  4A  90  
[RTU]>Tx > 20:54:06:204 : 08  04  00  6B  00  04  80  8C  
[RTU]>Rx > 20:54:06:235 : 08  04  08  00  10  00  00  00  06  00  00  FB  51  
[RTU]>Tx > 20:54:07:218 : 08  04  00  6B  00  04  80  8C  
[RTU]>Rx > 20:54:07:242 : 08  04  08  00  10  00  00  00  0B  00  00  6A  92  
[RTU]>Tx > 20:54:08:217 : 08  04  00  6B  00  04  80  8C  
[RTU]>Rx > 20:54:08:242 : 08  04  08  00  10  00  00  00  11  00  00  4B  55  
[RTU]>Tx > 20:54:09:219 : 08  04  00  6B  00  04  80  8C  
[RTU]>Rx > 20:54:09:245 : 08  04  08  00  10  00  00  00  16  00  00  FA  94  
[RTU]>Tx > 20:54:10:214 : 08  04  00  6B  00  04  80  8C  
[RTU]>Rx > 20:54:10:238 : 08  04  08  00  10  00  00  00  1B  00  00  6B  57  
[RTU]>Tx > 20:54:11:217 : 08  04  00  6B  00  04  80  8C  
[RTU]>Rx > 20:54:11:241 : 08  04  08  00  10  00  00  00  20  00  00  1A  9A  
[RTU]>Tx > 20:54:12:219 : 08  04  00  6B  00  04  80  8C  
[RTU]>Rx > 20:54:12:243 : 08  04  08  00  10  00  00  00  25  00  00  0A  9B  
[RTU]>Tx > 20:54:13:230 : 08  04  00  6B  00  04  80  8C  
[RTU]>Rx > 20:54:13:254 : 08  04  08  00  10  00  00  00  2A  00  00  3A  98  
[RTU]>Tx > 20:54:14:231 : 08  04  00  6B  00  04  80  8C  
[RTU]>Rx > 20:54:14:256 : 08  04  08  00  10  00  00  00  2F  00  00  2A  99  
[RTU]>Tx > 20:54:15:250 : 08  04  00  6B  00  04  80  8C  
[RTU]>Rx > 20:54:15:273 : 08  04  08  00  10  00  00  00  34  00  00  5A  9E  
[RTU]>Tx > 20:54:16:262 : 08  04  00  6B  00  04  80  8C  
[RTU]>Rx > 20:54:16:286 : 08  04  08  00  10  00  00  00  39  00  00  CB  5D  
[RTU]>Tx > 20:54:17:263 : 08  04  00  6B  00  04  80  8C  
[RTU]>Rx > 20:54:17:287 : 08  04  08  00  10  00  00  00  3E  00  00  7A  9C  
