[RTU]>Tx > 20:38:03:800 : 08  04  00  02  00  02  D0  92  
[RTU]>Rx > 20:38:03:821 : 08  04  04  0B  11  00  00  30  A5  
[RTU]>Tx > 20:38:04:803 : 08  04  00  02  00  02  D0  92  
[RTU]>Rx > 20:38:04:823 : 08  04  04  0B  84  00  00  20  89  
[RTU]>Tx > 20:38:05:822 : 08  04  00  02  00  02  D0  92  
[RTU]>Rx > 20:38:05:842 : 08  04  04  0D  A4  00  00  21  CB  
[RTU]>Tx > 20:38:06:826 : 08  04  00  02  00  02  D0  92  
[RTU]>Rx > 20:38:06:846 : 08  04  04  0D  AD  00  00  F1  C9  
[RTU]>Tx > 20:38:07:841 : 08  04  00  02  00  02  D0  92  
[RTU]>Rx > 20:38:07:861 : 08  04  04  0D  B2  00  00  C0  0F  
[RTU]>Tx > 20:38:08:859 : 08  04  00  02  00  02  D0  92  
[RTU]>Rx > 20:38:08:879 : 08  04  04  0B  16  00  00  81  64  
[RTU]>Tx > 20:38:09:871 : 08  04  00  02  00  02  D0  92  
[RTU]>Rx > 20:38:09:891 : 08  04  04  0A  53  00  00  91  4D  
[RTU]>Tx > 20:38:10:884 : 08  04  00  02  00  02  D0  92  
[RTU]>Rx > 20:38:10:904 : 08  04  04  0A  48  00  00  E1  4A  
[RTU]>Tx > 20:38:11:898 : 08  04  00  02  00  02  D0  92  
[RTU]>Rx > 20:38:11:918 : 08  04  04  0A  3B  00  00  10  91  
[RTU]>Tx > 20:38:12:898 : 08  04  00  02  00  02  D0  92  
[RTU]>Rx > 20:38:12:918 : 08  04  04  0A  2E  00  00  01  55  
[RTU]>Tx > 20:38:13:896 : 08  04  00  02  00  02  D0  92  
[RTU]>Rx > 20:38:13:917 : 08  04  04  0A  1F  00  00  50  9A  
[RTU]>Tx > 20:38:14:908 : 08  04  00  02  00  02  D0  92  
[RTU]>Rx > 20:38:14:928 : 08  04  04  0A  16  00  00  80  98  
[RTU]>Tx > 20:38:15:909 : 08  04  00  02  00  02  D0  92  
[RTU]>Rx > 20:38:15:929 : 08  04  04  0A  0C  00  00  A1  5F  
[RTU]>Tx > 20:38:16:924 : 08  04  00  02  00  02  D0  92  
[RTU]>Rx > 20:38:16:944 : 08  04  04  0A  02  00  00  C0  9C  
[RTU]>Tx > 20:38:17:939 : 08  04  00  02  00  02  D0  92  
[RTU]>Rx > 20:38:17:959 : 08  04  04  09  F9  00  00  B1  29  
[RTU]>Tx > 20:38:18:941 : 08  04  00  02  00  02  D0  92  
[RTU]>Rx > 20:38:18:961 : 08  04  04  09  F6  00  00  81  2A  
[RTU]>Tx > 20:38:19:946 : 08  04  00  02  00  02  D0  92  
[RTU]>Rx > 20:38:19:965 : 08  04  04  09  F1  00  00  30  EB  
[RTU]>Tx > 20:38:20:949 : 08  04  00  02  00  02  D0  92  
[RTU]>Rx > 20:38:20:970 : 08  04  04  09  F8  00  00  E0  E9  
[RTU]>Tx > 20:38:21:965 : 08  04  00  02  00  02  D0  92  
[RTU]>Rx > 20:38:21:985 : 08  04  04  0C  6D  00  00  F0  09  
[RTU]>Tx > 20:38:22:965 : 08  04  00  02  00  02  D0  92  
[RTU]>Rx > 20:38:22:985 : 08  04  04  0C  73  00  00  90  0F  
[RTU]>Tx > 20:38:23:978 : 08  04  00  02  00  02  D0  92  
[RTU]>Rx > 20:38:23:998 : 08  04  04  0C  7F  00  00  50  0C  
[RTU]>Tx > 20:38:24:974 : 08  04  00  02  00  02  D0  92  
[RTU]>Rx > 20:38:24:994 : 08  04  04  0D  01  00  00  31  E8  
[RTU]>Tx > 20:38:25:974 : 08  04  00  02  00  02  D0  92  
[RTU]>Rx > 20:38:25:994 : 08  04  04  0D  07  00  00  D1  E9  
[RTU]>Tx > 20:38:26:986 : 08  04  00  02  00  02  D0  92  
[RTU]>Rx > 20:38:27:006 : 08  04  04  0D  07  00  00  D1  E9  
[RTU]>Tx > 20:38:27:986 : 08  04  00  02  00  02  D0  92  
[RTU]>Rx > 20:38:28:006 : 08  04  04  0A  29  00  00  B0  94  
[RTU]>Tx > 20:38:29:000 : 08  04  00  02  00  02  D0  92  
[RTU]>Rx > 20:38:29:020 : 08  04  04  0A  20  00  00  60  96  
[RTU]>Tx > 20:38:29:988 : 08  04  00  02  00  02  D0  92  
[RTU]>Rx > 20:38:30:008 : 08  04  04  0A  16  00  00  80  98  
[RTU]>Tx > 20:38:31:000 : 08  04  00  02  00  02  D0  92  
[RTU]>Rx > 20:38:31:021 : 08  04  04  0A  09  00  00  B1  5E  
[RTU]>Tx > 20:38:32:016 : 08  04  00  02  00  02  D0  92  
[RTU]>Rx > 20:38:32:036 : 08  04  04  09  FE  00  00  00  E8  
[RTU]>Tx > 20:38:33:029 : 08  04  00  02  00  02  D0  92  
[RTU]>Rx > 20:38:33:050 : 08  04  04  09  F5  00  00  71  2A  
[RTU]>Tx > 20:38:34:045 : 08  04  00  02  00  02  D0  92  
[RTU]>Rx > 20:38:34:066 : 08  04  04  09  EE  00  00  01  2D  
[RTU]>Tx > 20:38:35:032 : 08  04  00  02  00  02  D0  92  
[RTU]>Rx > 20:38:35:052 : 08  04  04  09  E6  00  00  80  EF  
[RTU]>Tx > 20:38:36:049 : 08  04  00  02  00  02  D0  92  
[RTU]>Rx > 20:38:36:069 : 08  04  04  09  E1  00  00  31  2E  
[RTU]>Tx > 20:38:37:050 : 08  04  00  02  00  02  D0  92  
[RTU]>Rx > 20:38:37:070 : 08  04  04  09  DE  00  00  01  22  
[RTU]>Tx > 20:38:38:049 : 08  04  00  02  00  02  D0  92  
[RTU]>Rx > 20:38:38:069 : 08  04  04  09  E5  00  00  70  EF  
[RTU]>Tx > 20:38:39:053 : 08  04  00  02  00  02  D0  92  
[RTU]>Rx > 20:38:39:073 : 08  04  04  0A  4A  00  00  40  8A  
[RTU]>Tx > 20:38:40:055 : 08  04  00  02  00  02  D0  92  
[RTU]>Rx > 20:38:40:075 : 08  04  04  0C  4B  00  00  11  C2  
[RTU]>Tx > 20:38:41:053 : 08  04  00  02  00  02  D0  92  
[RTU]>Rx > 20:38:41:073 : 08  04  04  0C  55  00  00  71  C4  
[RTU]>Tx > 20:38:42:067 : 08  04  00  02  00  02  D0  92  
[RTU]>Rx > 20:38:42:088 : 08  04  04  0C  63  00  00  91  CA  
[RTU]>Tx > 20:38:43:069 : 08  04  00  02  00  02  D0  92  
[RTU]>Rx > 20:38:43:089 : 08  04  04  0C  DD  00  00  F1  EE  
[RTU]>Tx > 20:38:44:083 : 08  04  00  02  00  02  D0  92  
[RTU]>Rx > 20:38:44:103 : 08  04  04  0C  E5  00  00  70  23  
[RTU]>Tx > 20:38:45:109 : 08  04  00  02  00  02  D0  92  
[RTU]>Rx > 20:38:45:129 : 08  04  04  0C  E8  00  00  E1  E0  
[RTU]>Tx > 20:38:46:121 : 08  04  00  02  00  02  D0  92  
[RTU]>Rx > 20:38:46:142 : 08  04  04  0A  C1  00  00  30  A0  
[RTU]>Tx > 20:38:47:119 : 08  04  00  02  00  02  D0  92  
[RTU]>Rx > 20:38:47:139 : 08  04  04  0A  35  00  00  71  52  
[RTU]>Tx > 20:38:48:114 : 08  04  00  02  00  02  D0  92  
[RTU]>Rx > 20:38:48:134 : 08  04  04  0A  2D  00  00  F1  55  
[RTU]>Tx > 20:38:49:117 : 08  04  00  02  00  02  D0  92  
[RTU]>Rx > 20:38:49:138 : 08  04  04  0A  20  00  00  60  96  
[RTU]>Tx > 20:38:50:131 : 08  04  00  02  00  02  D0  92  
[RTU]>Rx > 20:38:50:150 : 08  04  04  0A  10  00  00  60  99  
[RTU]>Tx > 20:38:51:129 : 08  04  00  02  00  02  D0  92  
[RTU]>Rx > 20:38:51:149 : 08  04  04  0A  02  00  00  C0  9C  
[RTU]>Tx > 20:38:52:145 : 08  04  00  02  00  02  D0  92  
[RTU]>Rx > 20:38:52:165 : 08  04  04  09  F6  00  00  81  2A  
[RTU]>Tx > 20:38:53:156 : 08  04  00  02  00  02  D0  92  
[RTU]>Rx > 20:38:53:177 : 08  04  04  09  EC  00  00  A0  ED  
[RTU]>Tx > 20:38:54:145 : 08  04  00  02  00  02  D0  92  
[RTU]>Rx > 20:38:54:165 : 08  04  04  09  E5  00  00  70  EF  
[RTU]>Tx > 20:38:55:160 : 08  04  00  02  00  02  D0  92  
[RTU]>Rx > 20:38:55:181 : 08  04  04  09  E5  00  00  70  EF  
[RTU]>Tx > 20:38:56:176 : 08  04  00  02  00  02  D0  92  
[RTU]>Rx > 20:38:56:196 : 08  04  04  09  EE  00  00  01  2D  
[RTU]>Tx > 20:38:57:188 : 08  04  00  02  00  02  D0  92  
[RTU]>Rx > 20:38:57:208 : 08  04  04  09  FA  00  00  41  29  
[RTU]>Tx > 20:38:58:176 : 08  04  00  02  00  02  D0  92  
[RTU]>Rx > 20:38:58:196 : 08  04  04  0C  0A  00  00  41  D6  
[RTU]>Tx > 20:38:59:194 : 08  04  00  02  00  02  D0  92  
[RTU]>Rx > 20:38:59:214 : 08  04  04  0C  12  00  00  C1  D1  
[RTU]>Tx > 20:39:00:209 : 08  04  00  02  00  02  D0  92  
[RTU]>Rx > 20:39:00:229 : 08  04  04  0C  22  00  00  C1  DE  
[RTU]>Tx > 20:39:01:224 : 08  04  00  02  00  02  D0  92  
[RTU]>Rx > 20:39:01:278 : 08  04  04  0C  A4  00  00  20  37  
[RTU]>Tx > 20:39:02:226 : 08  04  00  02  00  02  D0  92  
[RTU]>Rx > 20:39:02:278 : 08  04  04  0D  13  00  00  91  ED  
[RTU]>Tx > 20:39:03:221 : 08  04  00  02  00  02  D0  92  
[RTU]>Rx > 20:39:03:277 : 08  04  04  0D  12  00  00  C0  2D  
[RTU]>Tx > 20:39:04:225 : 08  04  00  02  00  02  D0  92  
[RTU]>Rx > 20:39:04:278 : 08  04  04  0D  06  00  00  80  29  
[RTU]>Tx > 20:39:05:224 : 08  04  00  02  00  02  D0  92  
[RTU]>Rx > 20:39:05:278 : 08  04  04  0C  8C  00  00  A0  3F  
[RTU]>Tx > 20:39:06:229 : 08  04  00  02  00  02  D0  92  
[RTU]>Rx > 20:39:06:278 : 08  04  04  0C  7F  00  00  50  0C  
[RTU]>Tx > 20:39:07:241 : 08  04  00  02  00  02  D0  92  
[RTU]>Rx > 20:39:07:277 : 08  04  04  0A  87  00  00  D1  75  
[RTU]>Tx > 20:39:08:254 : 08  04  00  02  00  02  D0  92  
[RTU]>Rx > 20:39:08:278 : 08  04  04  0A  81  00  00  31  74  
[RTU]>Tx > 20:39:09:265 : 08  04  00  02  00  02  D0  92  
[RTU]>Rx > 20:39:09:285 : 08  04  04  0A  74  00  00  21  46  
