[RTU]>Tx > 21:23:58:684 : 08  04  00  00  00  02  71  52  
[RTU]>Rx > 21:23:58:704 : 08  04  04  50  79  00  00  A2  5D  
[RTU]>Tx > 21:23:59:682 : 08  04  00  00  00  02  71  52  
[RTU]>Rx > 21:23:59:702 : 08  04  04  50  76  00  00  92  5E  
[RTU]>Tx > 21:24:00:687 : 08  04  00  00  00  02  71  52  
[RTU]>Rx > 21:24:00:707 : 08  04  04  50  70  00  00  72  5F  
[RTU]>Tx > 21:24:01:702 : 08  04  00  00  00  02  71  52  
[RTU]>Rx > 21:24:01:721 : 08  04  04  50  6A  00  00  53  98  
[RTU]>Tx > 21:24:02:698 : 08  04  00  00  00  02  71  52  
[RTU]>Rx > 21:24:02:718 : 08  04  04  50  64  00  00  32  5B  
[RTU]>Tx > 21:24:03:711 : 08  04  00  00  00  02  71  52  
[RTU]>Rx > 21:24:03:730 : 08  04  04  50  59  00  00  A3  97  
[RTU]>Tx > 21:24:04:712 : 08  04  00  00  00  02  71  52  
[RTU]>Rx > 21:24:04:732 : 08  04  04  50  4A  00  00  52  52  
[RTU]>Tx > 21:24:05:713 : 08  04  00  00  00  02  71  52  
[RTU]>Rx > 21:24:05:733 : 08  04  04  50  3D  00  00  E2  48  
[RTU]>Tx > 21:24:06:712 : 08  04  00  00  00  02  71  52  
[RTU]>Rx > 21:24:06:732 : 08  04  04  50  34  00  00  32  4A  
[RTU]>Tx > 21:24:07:725 : 08  04  00  00  00  02  71  52  
[RTU]>Rx > 21:24:07:746 : 08  04  04  50  31  00  00  22  4B  
[RTU]>Tx > 21:24:08:727 : 08  04  00  00  00  02  71  52  
[RTU]>Rx > 21:24:08:747 : 08  04  04  50  2E  00  00  13  8D  
[RTU]>Tx > 21:24:09:731 : 08  04  00  00  00  02  71  52  
[RTU]>Rx > 21:24:09:750 : 08  04  04  50  2D  00  00  E3  8D  
[RTU]>Tx > 21:24:10:732 : 08  04  00  00  00  02  71  52  
[RTU]>Rx > 21:24:10:752 : 08  04  04  50  28  00  00  F3  8C  
[RTU]>Tx > 21:24:11:732 : 08  04  00  00  00  02  71  52  
[RTU]>Rx > 21:24:11:751 : 08  04  04  50  15  00  00  62  40  
[RTU]>Tx > 21:24:12:721 : 08  04  00  00  00  02  71  52  
[RTU]>Rx > 21:24:12:742 : 08  04  04  50  02  00  00  D2  44  
[RTU]>Tx > 21:24:13:737 : 08  04  00  00  00  02  71  52  
[RTU]>Rx > 21:24:13:757 : 08  04  04  4F  F8  00  00  F5  A1  
[RTU]>Tx > 21:24:14:733 : 08  04  00  00  00  02  71  52  
[RTU]>Rx > 21:24:14:753 : 08  04  04  4F  F3  00  00  84  63  
[RTU]>Tx > 21:24:15:722 : 08  04  00  00  00  02  71  52  
[RTU]>Rx > 21:24:15:743 : 08  04  04  4F  F0  00  00  74  63  
[RTU]>Tx > 21:24:16:723 : 08  04  00  00  00  02  71  52  
[RTU]>Rx > 21:24:16:744 : 08  04  04  4F  F1  00  00  25  A3  
[RTU]>Tx > 21:24:17:735 : 08  04  00  00  00  02  71  52  
[RTU]>Rx > 21:24:17:755 : 08  04  04  50  01  00  00  22  44  
[RTU]>Tx > 21:24:18:747 : 08  04  00  00  00  02  71  52  
[RTU]>Rx > 21:24:18:767 : 08  04  04  50  11  00  00  23  81  
[RTU]>Tx > 21:24:19:765 : 08  04  00  00  00  02  71  52  
[RTU]>Rx > 21:24:19:785 : 08  04  04  50  14  00  00  33  80  
[RTU]>Tx > 21:24:20:778 : 08  04  00  00  00  02  71  52  
[RTU]>Rx > 21:24:20:798 : 08  04  04  50  0F  00  00  43  87  
[RTU]>Tx > 21:24:21:778 : 08  04  00  00  00  02  71  52  
[RTU]>Rx > 21:24:21:798 : 08  04  04  50  10  00  00  72  41  
[RTU]>Tx > 21:24:22:778 : 08  04  00  00  00  02  71  52  
[RTU]>Rx > 21:24:22:798 : 08  04  04  50  17  00  00  C3  80  
[RTU]>Tx > 21:24:23:777 : 08  04  00  00  00  02  71  52  
[RTU]>Rx > 21:24:23:797 : 08  04  04  50  1E  00  00  13  82  
[RTU]>Tx > 21:24:24:775 : 08  04  00  00  00  02  71  52  
[RTU]>Rx > 21:24:24:795 : 08  04  04  50  22  00  00  D3  8E  
[RTU]>Tx > 21:24:25:785 : 08  04  00  00  00  02  71  52  
[RTU]>Rx > 21:24:25:805 : 08  04  04  50  25  00  00  62  4F  
[RTU]>Tx > 21:24:26:813 : 08  04  00  00  00  02  71  52  
[RTU]>Rx > 21:24:26:833 : 08  04  04  50  28  00  00  F3  8C  
[RTU]>Tx > 21:24:27:813 : 08  04  00  00  00  02  71  52  
[RTU]>Rx > 21:24:27:833 : 08  04  04  50  21  00  00  23  8E  
[RTU]>Tx > 21:24:28:824 : 08  04  00  00  00  02  71  52  
[RTU]>Rx > 21:24:28:844 : 08  04  04  50  19  00  00  A2  43  
[RTU]>Tx > 21:24:29:824 : 08  04  00  00  00  02  71  52  
[RTU]>Rx > 21:24:29:845 : 08  04  04  50  16  00  00  92  40  
[RTU]>Tx > 21:24:30:837 : 08  04  00  00  00  02  71  52  
[RTU]>Rx > 21:24:30:857 : 08  04  04  50  19  00  00  A2  43  
[RTU]>Tx > 21:24:31:857 : 08  04  00  00  00  02  71  52  
[RTU]>Rx > 21:24:31:877 : 08  04  04  50  1E  00  00  13  82  
[RTU]>Tx > 21:24:32:873 : 08  04  00  00  00  02  71  52  
[RTU]>Rx > 21:24:32:894 : 08  04  04  50  25  00  00  62  4F  
[RTU]>Tx > 21:24:33:886 : 08  04  00  00  00  02  71  52  
[RTU]>Rx > 21:24:33:907 : 08  04  04  50  2F  00  00  42  4D  
[RTU]>Tx > 21:24:34:885 : 08  04  00  00  00  02  71  52  
[RTU]>Rx > 21:24:34:905 : 08  04  04  50  31  00  00  22  4B  
[RTU]>Tx > 21:24:35:898 : 08  04  00  00  00  02  71  52  
[RTU]>Rx > 21:24:35:918 : 08  04  04  50  31  00  00  22  4B  
[RTU]>Tx > 21:24:36:892 : 08  04  00  00  00  02  71  52  
[RTU]>Rx > 21:24:36:911 : 08  04  04  50  31  00  00  22  4B  
[RTU]>Tx > 21:24:37:918 : 08  04  00  00  00  02  71  52  
[RTU]>Rx > 21:24:37:938 : 08  04  04  50  32  00  00  D2  4B  
[RTU]>Tx > 21:24:38:920 : 08  04  00  00  00  02  71  52  
[RTU]>Rx > 21:24:38:940 : 08  04  04  50  30  00  00  73  8B  
[RTU]>Tx > 21:24:39:918 : 08  04  00  00  00  02  71  52  
[RTU]>Rx > 21:24:39:938 : 08  04  04  50  2A  00  00  52  4C  
[RTU]>Tx > 21:24:40:916 : 08  04  00  00  00  02  71  52  
[RTU]>Rx > 21:24:40:936 : 08  04  04  50  29  00  00  A2  4C  
[RTU]>Tx > 21:24:41:932 : 08  04  00  00  00  02  71  52  
[RTU]>Rx > 21:24:41:952 : 08  04  04  50  2F  00  00  42  4D  
[RTU]>Tx > 21:24:42:932 : 08  04  00  00  00  02  71  52  
[RTU]>Rx > 21:24:42:952 : 08  04  04  50  34  00  00  32  4A  
[RTU]>Tx > 21:24:43:928 : 08  04  00  00  00  02  71  52  
[RTU]>Rx > 21:24:43:949 : 08  04  04  50  3B  00  00  02  49  
[RTU]>Tx > 21:24:44:931 : 08  04  00  00  00  02  71  52  
[RTU]>Rx > 21:24:44:951 : 08  04  04  50  45  00  00  62  51  
[RTU]>Tx > 21:24:45:937 : 08  04  00  00  00  02  71  52  
[RTU]>Rx > 21:24:45:957 : 08  04  04  50  4E  00  00  13  93  
[RTU]>Tx > 21:24:46:936 : 08  04  00  00  00  02  71  52  
[RTU]>Rx > 21:24:46:956 : 08  04  04  50  50  00  00  73  95  
